#
#"Frequency / GHz"	"S1,1 [Real/Imaginary Part] [Re]"	"S1,1 [Real/Imaginary Part] [Im]"
#-------------------------------------------------------------------------------------
5.0000000000000	0.93322329291814	0.35391419453333
5.0050000000000	0.93531042948693	0.34835004625332
5.0100000000000	0.93736437333063	0.34277363049865
5.0150000000000	0.93938492315757	0.33718550193548
5.0200000000000	0.94137231274500	0.33158501946547
5.0250000000000	0.94332631173281	0.32597281893590
5.0300000000000	0.94524700937212	0.32034863575399
5.0350000000000	0.94713384763667	0.31471410733666
5.0400000000000	0.94898741485434	0.30906748304686
5.0450000000000	0.95080729838694	0.30341000194241
5.0500000000000	0.95259346527413	0.29774175253232
5.0550000000000	0.95434569366470	0.29206347193197
5.0600000000000	0.95606433550996	0.28637398446905
5.0650000000000	0.95774907409869	0.28067432956699
5.0700000000000	0.95939981809137	0.27496480061154
5.0750000000000	0.96101639440506	0.26924603246156
5.0800000000000	0.96259887336913	0.26351776602270
5.0850000000000	0.96414735094815	0.25777966316342
5.0900000000000	0.96566172228320	0.25203206374021
5.0950000000000	0.96714159871381	0.24627648369532
5.1000000000000	0.96858750940387	0.24051082176737
5.1050000000000	0.96999881352875	0.23473762658517
5.1100000000000	0.97137582836353	0.22895562992586
5.1150000000000	0.97271836450218	0.22316560198663
5.1200000000000	0.97402638628454	0.21736769172374
5.1250000000000	0.97529995652820	0.21156160655548
5.1300000000000	0.97653890416608	0.20574811107041
5.1350000000000	0.97774310215473	0.19992782373410
5.1400000000000	0.97891260212109	0.19410051141880
5.1450000000000	0.98004746506121	0.18826585494685
5.1500000000000	0.98114763532635	0.18242410220399
5.1550000000000	0.98221289771662	0.17657638496214
5.1600000000000	0.98324322672388	0.17072288760026
5.1650000000000	0.98423882270117	0.16486247495062
5.1700000000000	0.98519948451404	0.15899626429120
5.1750000000000	0.98612517551827	0.15312447255161
5.1800000000000	0.98701587556251	0.14724724908361
5.1850000000000	0.98787154301638	0.14136485433478
5.1900000000000	0.98869214135962	0.13547755084209
5.1950000000000	0.98947778253386	0.12958447079395
5.2000000000000	0.99022811534658	0.12368828467005
5.2050000000000	0.99094347985817	0.11778632901293
5.2100000000000	0.99162361077992	0.11188071571767
5.2150000000000	0.99226854615536	0.10597115413916
5.2200000000000	0.99287820809200	0.10005840909305
5.2250000000000	0.99345276957430	0.094140684642352
5.2300000000000	0.99399197662509	0.088220617118204
5.2350000000000	0.99449597638833	0.082296547953473
5.2400000000000	0.99496459652610	0.076370554444671
5.2450000000000	0.99539793503417	0.070441380767405
5.2500000000000	0.99579596704579	0.064509313066576
5.2550000000000	0.99615861662434	0.058575452943643
5.2600000000000	0.99648592586151	0.052639117609374
5.2650000000000	0.99677781445053	0.046701876653329
5.2700000000000	0.99703438125325	0.040761626389355
5.2750000000000	0.99725554601842	0.034819941003962
5.2800000000000	0.99744127107536	0.028878070343552
5.2850000000000	0.99759158796317	0.022935202364802
5.2900000000000	0.99770651047092	0.016990600784111
5.2950000000000	0.99778601276117	0.011044947378711
5.3000000000000	0.99783007497601	0.0050994570733150
5.3050000000000	0.99783871131805	-0.00084566823361675
5.3100000000000	0.99781191268668	-0.0067917176965341
5.3150000000000	0.99774967835253	-0.012737467231878
5.3200000000000	0.99765201123606	-0.018682713886513
5.3250000000000	0.99751894125326	-0.024626281335409
5.3300000000000	0.99735042895538	-0.030569887938079
5.3350000000000	0.99714650076186	-0.036512365161168
5.3400000000000	0.99690715900798	-0.042453509379065
5.3450000000000	0.99663241552508	-0.048393082718414
5.3500000000000	0.99632228479268	-0.054330889863819
5.3550000000000	0.99597671180149	-0.060267679092729
5.3600000000000	0.99559579273018	-0.066201804358113
5.3650000000000	0.99517955210058	-0.072133033087454
5.3700000000000	0.99472793392661	-0.078062134950169
5.3750000000000	0.99424098900932	-0.083988425549204
5.3800000000000	0.99371864493164	-0.089912638534841
5.3850000000000	0.99316109209549	-0.095832658137177
5.3900000000000	0.99256826463564	-0.10174922396718
5.3950000000000	0.99194013946251	-0.10766259209025
5.4000000000000	0.99127678126684	-0.11357208588127
5.4050000000000	0.99057820983810	-0.11947752285580
5.4100000000000	0.98984446271428	-0.12537861152240
5.4150000000000	0.98907542488535	-0.13127619669014
5.4200000000000	0.98827137418973	-0.13716812525811
5.4250000000000	0.98743209093880	-0.14305605646843
5.4300000000000	0.98655793864922	-0.14893743839011
5.4350000000000	0.98564852704954	-0.15481490922030
5.4400000000000	0.98470417698195	-0.16068634451179
5.4450000000000	0.98372476543785	-0.16655251748694
5.4500000000000	0.98271048941554	-0.17241222162417
5.4550000000000	0.98166113638870	-0.17826669704523
5.4600000000000	0.98057698344014	-0.18411434054717
5.4650000000000	0.97945799550831	-0.18995539992567
5.4700000000000	0.97830431170900	-0.19578914878733
5.4750000000000	0.97711567584892	-0.20161686685982
5.4800000000000	0.97589232870206	-0.20743735071995
5.4850000000000	0.97463430492770	-0.21325041264093
5.4900000000000	0.97334175879286	-0.21905537775533
5.4950000000000	0.97201441171761	-0.22485346852518
5.5000000000000	0.97065263423484	-0.23064304859829
5.5050000000000	0.96925626140903	-0.23642482554880
5.5100000000000	0.96782555470849	-0.24219771258808
5.5150000000000	0.96636046949684	-0.24796191698901
5.5200000000000	0.96486080662333	-0.25371819007323
5.5250000000000	0.96332697951879	-0.25946491970058
5.5300000000000	0.96175877903158	-0.26520288522432
5.5350000000000	0.96015668021707	-0.27093039420652
5.5400000000000	0.95852005574822	-0.27664964715262
5.5450000000000	0.95684962793947	-0.28235810416576
5.5500000000000	0.95514493031357	-0.28805737476409
5.5550000000000	0.95340656889959	-0.29374543095475
5.5600000000000	0.95163418597604	-0.29942346011750
5.5650000000000	0.94982783513376	-0.30509125367203
5.5700000000000	0.94798787026462	-0.31074770589082
5.5750000000000	0.94611407685869	-0.31639349007766
5.5800000000000	0.94420680235967	-0.32202753875648
5.5850000000000	0.94226565695405	-0.32765100592675
5.5900000000000	0.94029102554867	-0.33326275106213
5.5950000000000	0.93828328796086	-0.33886171351774
5.6000000000000	0.93624188192690	-0.34444947055962
5.6050000000000	0.93416719343729	-0.35002492862257
5.6100000000000	0.93205946867244	-0.35558745090178
5.6150000000000	0.92991844775671	-0.36113772616690
5.6200000000000	0.92774437410057	-0.36667510424361
5.6250000000000	0.92553714742499	-0.37219983024188
5.6300000000000	0.92329700797954	-0.37771129532351
5.6350000000000	0.92102405936090	-0.38320924874140
5.6400000000000	0.91871854375774	-0.38869310791300
5.6450000000000	0.91638019088388	-0.39416352198117
5.6500000000000	0.91400926703356	-0.39961985839686
5.6550000000000	0.91160564357388	-0.40506239892094
5.6600000000000	0.90916982054743	-0.41049002534993
5.6650000000000	0.90670166529692	-0.41590301666758
5.6700000000000	0.90420108313681	-0.42130159922339
5.6750000000000	0.90166835811067	-0.42668513501615
5.6800000000000	0.89910377972437	-0.43205302458069
5.6850000000000	0.89650661421134	-0.43740679355414
5.6900000000000	0.89387798858902	-0.44274408704790
5.6950000000000	0.89121716190608	-0.44806642944925
5.7000000000000	0.88852528761920	-0.45337151449841
5.7050000000000	0.88580137578463	-0.45866130361544
5.7100000000000	0.88304578731805	-0.46393507725691
5.7150000000000	0.88025899776421	-0.46919191761454
5.7200000000000	0.87744090574263	-0.47443202471610
5.7250000000000	0.87459138835354	-0.47965562481917
5.7300000000000	0.87171077891633	-0.48486209397494
5.7350000000000	0.86879893259820	-0.49005168891816
5.7400000000000	0.86585690776071	-0.49522253700508
5.7450000000000	0.86288360968633	-0.50037657486550
5.7500000000000	0.85987938726056	-0.50551317338045
5.7550000000000	0.85684460478366	-0.51063169905567
5.7600000000000	0.85377934284967	-0.51573202105515
5.7650000000000	0.85068371661426	-0.52081394618697
5.7700000000000	0.84755809273733	-0.52587687690419
5.7750000000000	0.84440183400865	-0.53092184465418
5.7800000000000	0.84121552223354	-0.53594790082911
5.7850000000000	0.83799955250957	-0.54095443025692
5.7900000000000	0.83475353572605	-0.54594204247875
5.7950000000000	0.83147782214767	-0.55091018173746
5.8000000000000	0.82817253846862	-0.55585866887885
5.8050000000000	0.82483779850752	-0.56078732971575
5.8100000000000	0.82147373517548	-0.56569596866775
5.8150000000000	0.81808018666858	-0.57058481449007
5.8200000000000	0.81465750494014	-0.57545334424672
5.8250000000000	0.81120588219826	-0.58030130210919
5.8300000000000	0.80772540143167	-0.58512856158959
5.8350000000000	0.80421620085380	-0.58993493314680
5.8400000000000	0.80067837416944	-0.59472028794489
5.8450000000000	0.79711208710797	-0.59948440286467
5.8500000000000	0.79351715951058	-0.60422751620932
5.8550000000000	0.78989399223094	-0.60894908223431
5.8600000000000	0.78624243638502	-0.61364930244942
5.8650000000000	0.78256354069759	-0.61832682641065
5.8700000000000	0.77885617180369	-0.62298308971633
5.8750000000000	0.77512140598370	-0.62761674617481
5.8800000000000	0.77135846051031	-0.63222875810637
5.8850000000000	0.76756870258919	-0.63681744068200
5.8900000000000	0.76375133693470	-0.64138377555954
5.8950000000000	0.75990646975884	-0.64592761665533
5.9000000000000	0.75603487398495	-0.65044805051463
5.9050000000000	0.75213612334425	-0.65494557923409
5.9100000000000	0.74821122334664	-0.65941905182810
5.9150000000000	0.74425904046307	-0.66386975049108
5.9200000000000	0.74028008676243	-0.66829708803732
5.9250000000000	0.73627512210180	-0.67270021599533
5.9300000000000	0.73224396627530	-0.67707934312518
5.9350000000000	0.72818644062837	-0.68143465868226
5.9400000000000	0.72410299346617	-0.68576567055370
5.9450000000000	0.71999378448362	-0.69007220898565
5.9500000000000	0.71585930296866	-0.69435376877315
5.9550000000000	0.71169868486640	-0.69861124260180
5.9600000000000	0.70751305432778	-0.70284347142209
5.9650000000000	0.70330194888993	-0.70705093008371
5.9700000000000	0.69906614470702	-0.71123283136822
5.9750000000000	0.69480516256477	-0.71538965837569
5.9800000000000	0.69051941508701	-0.71952099670162
5.9850000000000	0.68620875818372	-0.72362698540440
5.9900000000000	0.68187442367794	-0.72770645721648
5.9950000000000	0.67751511760508	-0.73176062615844
6.0000000000000	0.67313166972276	-0.73578871194001
6.0050000000000	0.66872429543765	-0.73979051493145
6.0100000000000	0.66429315936058	-0.74376589014286
6.0150000000000	0.65983834097141	-0.74771476102678
6.0200000000000	0.65536007339661	-0.75163692574526
6.0250000000000	0.65085808370954	-0.75553261819787
6.0300000000000	0.64633334971731	-0.75940099113062
6.0350000000000	0.64178524884021	-0.76324257800915
6.0400000000000	0.63721395129344	-0.76705722513192
6.0450000000000	0.63262068047279	-0.77084391566973
6.0500000000000	0.62800416393899	-0.77460369701723
6.0550000000000	0.62336612830097	-0.77833516981972
6.0600000000000	0.61870509979293	-0.78203951648242
6.0650000000000	0.61402165212924	-0.78571626142230
6.0700000000000	0.60931680711181	-0.78936460691374
6.0750000000000	0.60459061367390	-0.79298452708145
6.0800000000000	0.59984253525682	-0.79657643169248
6.0850000000000	0.59507271991561	-0.80014019829559
6.0900000000000	0.59028178370660	-0.80367536213691
6.0950000000000	0.58547021289127	-0.80718157422696
6.1000000000000	0.58063697033089	-0.81065957640947
6.1050000000000	0.57578351582280	-0.81410831689805
6.1100000000000	0.57090956659183	-0.81752800892169
6.1150000000000	0.56601531012851	-0.82091851446463
6.1200000000000	0.56110012264224	-0.82428025329326
6.1250000000000	0.55616533883086	-0.82761231513725
6.1300000000000	0.55121080311400	-0.83091480670609
6.1350000000000	0.54623664782918	-0.83418763985101
6.1400000000000	0.54124345079035	-0.83743043846270
6.1450000000000	0.53622982514684	-0.84064410144195
6.1500000000000	0.53119782849415	-0.84382729371107
6.1550000000000	0.52614661183260	-0.84698056555471
6.1600000000000	0.52107670113407	-0.85010358494502
6.1650000000000	0.51598820177146	-0.85319627810261
6.1700000000000	0.51088089198875	-0.85625878369417
6.1750000000000	0.50575588468887	-0.85929043246941
6.1800000000000	0.50061247045489	-0.86229164491968
6.1850000000000	0.49545161427452	-0.86526185830385
6.1900000000000	0.49027236356906	-0.86820161186718
6.1950000000000	0.48507565259811	-0.87111037436201
6.2000000000000	0.47986248767761	-0.87398758758227
6.2050000000000	0.47463146345793	-0.87683402656848
6.2100000000000	0.46938347674552	-0.87964919473197
6.2150000000000	0.46411887263304	-0.88243290837493
6.2200000000000	0.45883811955298	-0.88518492819834
6.2250000000000	0.45354068855415	-0.88790552064185
6.2300000000000	0.44822664113351	-0.89059465695432
6.2350000000000	0.44289665131218	-0.89325198458410
6.2400000000000	0.43755140159878	-0.89587716915358
6.2450000000000	0.43219008698653	-0.89847060439269
6.2500000000000	0.42681340357179	-0.90103195188493
6.2550000000000	0.42142116465766	-0.90356129407899
6.2600000000000	0.41601432458548	-0.90605818703481
6.2650000000000	0.41059267976384	-0.90852273094090
6.2700000000000	0.40515597416317	-0.91095503192783
6.2750000000000	0.39970537133986	-0.91335457441551
6.2800000000000	0.39423962240772	-0.91572189894524
6.2850000000000	0.38876038402331	-0.91805629174798
6.2900000000000	0.38326724836610	-0.92035792445819
6.2950000000000	0.37776003867188	-0.92262687485191
6.3000000000000	0.37223940729217	-0.92486285686381
6.3050000000000	0.36670599361562	-0.92706562933182
6.3100000000000	0.36115863728124	-0.92923564202879
6.3150000000000	0.35559889536692	-0.93137228549945
6.3200000000000	0.35002652578139	-0.93347565567605
6.3250000000000	0.34444165911409	-0.93554570634689
6.3300000000000	0.33884368698404	-0.93758265173507
6.3350000000000	0.33323458253968	-0.93958577348042
6.3400000000000	0.32761273611358	-0.94155564761104
6.3450000000000	0.32198014015779	-0.94349157698780
6.3500000000000	0.31633514961714	-0.94539412847774
6.3550000000000	0.31067897483063	-0.94726288265737
6.3600000000000	0.30501179297978	-0.94909778413808
6.3650000000000	0.29933460809608	-0.95089851726301
6.3700000000000	0.29364548979611	-0.95266568905964
6.3750000000000	0.28794635702459	-0.95439869133963
6.3800000000000	0.28223648943017	-0.95609774715350
6.3850000000000	0.27651671011543	-0.95776260920344
6.3900000000000	0.27078795357439	-0.95939301377488
6.3950000000000	0.26504825384034	-0.96098951416488
6.4000000000000	0.25929907003981	-0.96255169431784
6.4050000000000	0.25354118461242	-0.96407933979703
6.4100000000000	0.24777428520430	-0.96557254457088
6.4150000000000	0.24199865543262	-0.96703123596242
6.4200000000000	0.23621389125300	-0.96845551084005
6.4250000000000	0.23042075223475	-0.96984517465457
6.4300000000000	0.22461992810666	-0.97120007124657
6.4350000000000	0.21880979673015	-0.97252057165083
6.4400000000000	0.21299274442088	-0.97380612227142
6.4450000000000	0.20716721974833	-0.97505707442830
6.4500000000000	0.20133622452521	-0.97627278339662
6.4550000000000	0.19549631932332	-0.97745398001279
6.4600000000000	0.18964940207442	-0.97860025615080
6.4650000000000	0.18379622531352	-0.97971146322510
6.4700000000000	0.17793701943346	-0.98078757449938
6.4750000000000	0.17207008606793	-0.98182889085103
6.4800000000000	0.16619756111187	-0.98283502688855
6.4850000000000	0.16031915048932	-0.98380603527359
6.4900000000000	0.15443600660882	-0.98474172924791
6.4950000000000	0.14854598756126	-0.98564246011142
6.5000000000000	0.14265075524693	-0.98650794865721
6.5050000000000	0.13675044229767	-0.98733817743699
6.5100000000000	0.13084484554651	-0.98813317749139
6.5150000000000	0.12493598038184	-0.98889268015436
6.5200000000000	0.11902133704848	-0.98961700719777
6.5250000000000	0.11310298825521	-0.99030590113049
6.5300000000000	0.10718020236693	-0.99095945125581
6.5350000000000	0.10125415846690	-0.99157752100421
6.5400000000000	0.095323942709368	-0.99216020585228
6.5450000000000	0.089389966853206	-0.99270745655976
6.5500000000000	0.083453351951143	-0.99321917563363
6.5550000000000	0.077513751609777	-0.99369539103802
6.5600000000000	0.071571525596357	-0.99413608271676
6.5650000000000	0.065626230756549	-0.99454126687098
6.5700000000000	0.059678239178511	-0.99491091994068
6.5750000000000	0.053729062196670	-0.99524495199329
6.5800000000000	0.047777660430980	-0.99554342804356
6.5850000000000	0.041824018635051	-0.99580633183312
6.5900000000000	0.035869505586758	-0.99603360821183
6.5950000000000	0.029913236570079	-0.99622529251434
6.6000000000000	0.023956400819867	-0.99638134530491
6.6050000000000	0.017997909773547	-0.99650179065224
6.6100000000000	0.012039233758322	-0.99658659627068
6.6150000000000	0.0060806935810242	-0.99663576552646
6.6200000000000	0.00012058258893760	-0.99664930298268
6.6250000000000	-0.0058390110716529	-0.99662720179142
6.6300000000000	-0.011798384144272	-0.99656945758304
6.6350000000000	-0.017757206722590	-0.99647608249008
6.6400000000000	-0.023714906232998	-0.99634707935928
6.6450000000000	-0.029672551704240	-0.99618242885436
6.6500000000000	-0.035629249122132	-0.99598214640720
6.6550000000000	-0.041584947356126	-0.99574622559769
6.6600000000000	-0.047537703066999	-0.99547475840926
6.6650000000000	-0.053490170695212	-0.99516761967394
6.6700000000000	-0.059440133742832	-0.99482491765733
6.6750000000000	-0.065388410276700	-0.99444661083286
6.6800000000000	-0.071333796782128	-0.99403276198387
6.6850000000000	-0.077277131694501	-0.99358332615310
6.6900000000000	-0.083217603211778	-0.99309835288333
6.6950000000000	-0.089155474704407	-0.99257782198013
6.7000000000000	-0.095089148760133	-0.99202187251201
6.7050000000000	-0.10102028953110	-0.99143035562050
6.7100000000000	-0.10694737338234	-0.99080341743749
6.7150000000000	-0.11287099475503	-0.99014098906768
6.7200000000000	-0.11878998799833	-0.98944321041507
6.7250000000000	-0.12470618676068	-0.98870985587968
6.7300000000000	-0.13061685726301	-0.98794124999995
6.7350000000000	-0.13652277478153	-0.98713731281977
6.7400000000000	-0.14242429706142	-0.98629798982241
6.7450000000000	-0.14832059591978	-0.98542338730451
6.7500000000000	-0.15421112262347	-0.98451359697365
6.7550000000000	-0.16009693972541	-0.98356845226596
6.7600000000000	-0.16597751568197	-0.98258802185410
6.7650000000000	-0.17185057590637	-0.98157269451387
6.7700000000000	-0.17771797832055	-0.98052216564234
6.7750000000000	-0.18357986497370	-0.97943638513588
6.7800000000000	-0.18943467118048	-0.97831564830407
6.7850000000000	-0.19528220289532	-0.97715999410240
6.7900000000000	-0.20112351274969	-0.97596921557707
6.7950000000000	-0.20695719198906	-0.97474359656628
6.8000000000000	-0.21278436395091	-0.97348289353719
6.8050000000000	-0.21860286250251	-0.97218757578262
6.8100000000000	-0.22441445491665	-0.97085724944217
6.8150000000000	-0.23021738329477	-0.96949231893574
6.8200000000000	-0.23601256135266	-0.96809256281758
6.8250000000000	-0.24179876287369	-0.96665828139309
6.8300000000000	-0.24757671693633	-0.96518929346987
6.8350000000000	-0.25334571841816	-0.96368577783247
6.8400000000000	-0.25910565627243	-0.96214775368828
6.8450000000000	-0.26485620768301	-0.96057531276643
6.8500000000000	-0.27059766266176	-0.95896837803698
6.8550000000000	-0.27632892122004	-0.95732725011625
6.8600000000000	-0.28205071030032	-0.95565172508134
6.8650000000000	-0.28776181264633	-0.95394216187607
6.8700000000000	-0.29346308970589	-0.95219829169858
6.8750000000000	-0.29915473536429	-0.95042005889095
6.8800000000000	-0.30483464494481	-0.94860810332051
6.8850000000000	-0.31050446901481	-0.94676191341979
6.8900000000000	-0.31616174672799	-0.94488228816173
6.8950000000000	-0.32180864425206	-0.94296851407073
6.9000000000000	-0.32744388613688	-0.94102101409683
6.9050000000000	-0.33306775396213	-0.93903969251610
6.9100000000000	-0.33867965585151	-0.93702474813624
6.9150000000000	-0.34427901887230	-0.93497639063686
6.9200000000000	-0.34986677135324	-0.93289427995213
6.9250000000000	-0.35544114065685	-0.93077907173544
6.9300000000000	-0.36100260561155	-0.92863059944559
