#
#"Frequency / GHz"	"S1,2 [Real/Imaginary Part] [Re]"	"S1,2 [Real/Imaginary Part] [Im]"
#-------------------------------------------------------------------------------------
5.0000000000000	-0.021970728617627	0.057933715141566
5.0050000000000	-0.021646837678923	0.058121081434928
5.0100000000000	-0.021321491136401	0.058306629085989
5.0150000000000	-0.020994737066817	0.058490380065378
5.0200000000000	-0.020666518901094	0.058672304793068
5.0250000000000	-0.020336874702068	0.058852384189858
5.0300000000000	-0.020005774513172	0.059030582508008
5.0350000000000	-0.019673349184468	0.059206952980671
5.0400000000000	-0.019339482005477	0.059381507143340
5.0450000000000	-0.019004212576216	0.059554107504954
5.0500000000000	-0.018667589086515	0.059724884013513
5.0550000000000	-0.018329605351992	0.059893651021390
5.0600000000000	-0.017990247404885	0.060060630499283
5.0650000000000	-0.017649526202940	0.060225618097106
5.0700000000000	-0.017307495279628	0.060388730941248
5.0750000000000	-0.016964149185597	0.060549800057919
5.0800000000000	-0.016619533274982	0.060709044906688
5.0850000000000	-0.016273566792996	0.060866258688746
5.0900000000000	-0.015926307760147	0.061021573359300
5.0950000000000	-0.015577799294111	0.061174760615096
5.1000000000000	-0.015227969959555	0.061326091464950
5.1050000000000	-0.014876949136627	0.061475404655024
5.1100000000000	-0.014524646880593	0.061622673046722
5.1150000000000	-0.014171115858233	0.061767906714406
5.1200000000000	-0.013816380153703	0.061911159048954
5.1250000000000	-0.013460408963295	0.062052386761111
5.1300000000000	-0.013103240457731	0.062191537341743
5.1350000000000	-0.012744919586656	0.062328615258973
5.1400000000000	-0.012385438735007	0.062463664316085
5.1450000000000	-0.012024767949789	0.062596639900753
5.1500000000000	-0.011662915931264	0.062727508318021
5.1550000000000	-0.011299962496302	0.062856286517894
5.1600000000000	-0.010935926915280	0.062983016546075
5.1650000000000	-0.010570709272296	0.063107561468665
5.1700000000000	-0.010204396989603	0.063229994469657
5.1750000000000	-0.0098370091337783	0.063350350731582
5.1800000000000	-0.0094685412253295	0.063468534626320
5.1850000000000	-0.0090990174719489	0.063584591345443
5.1900000000000	-0.0087284485109609	0.063698482841218
5.1950000000000	-0.0083567842412355	0.063810256145079
5.2000000000000	-0.0079841854740580	0.063919807109742
5.2050000000000	-0.0076104871608651	0.064027200719743
5.2100000000000	-0.0072358225304960	0.064132398989210
5.2150000000000	-0.0068601721338022	0.064235392716861
5.2200000000000	-0.0064835821178978	0.064336151869163
5.2250000000000	-0.0061059494735812	0.064434824119115
5.2300000000000	-0.0057274236825805	0.064531158933206
5.2350000000000	-0.0053479108600354	0.064625332139554
5.2400000000000	-0.0049675343420028	0.064717169916579
5.2450000000000	-0.0045862252877332	0.064806856594768
5.2500000000000	-0.0042039922358123	0.064894253713296
5.2550000000000	-0.0038209113749891	0.064979419666184
5.2600000000000	-0.0034369372432558	0.065062359252685
5.2650000000000	-0.0030521690397064	0.065142979695343
5.2700000000000	-0.0026664699560078	0.065221334821604
5.2750000000000	-0.0022799431024706	0.065297390888971
5.2800000000000	-0.0018926691626589	0.065371115271114
5.2850000000000	-0.0015045982722691	0.065442624861215
5.2900000000000	-0.0011156783498012	0.065511794842748
5.2950000000000	-0.00072595434042450	0.065578603172770
5.3000000000000	-0.00033550801944035	0.065643173935663
5.3050000000000	5.5650152952638e-05	0.065705285889837
5.3100000000000	0.00044760279482023	0.065765169039166
5.3150000000000	0.00084027055228821	0.065822724803894
5.3200000000000	0.0012336397998644	0.065877924776547
5.3250000000000	0.0016276310907073	0.065930726481261
5.3300000000000	0.0020223598792496	0.065981164893489
5.3350000000000	0.0024177457841992	0.066029196607940
5.3400000000000	0.0028137792551781	0.066074929986888
5.3450000000000	0.0032104447542761	0.066118320511907
5.3500000000000	0.0036077206460050	0.066159206965027
5.3550000000000	0.0040056689309327	0.066197822905412
5.3600000000000	0.0044041719954287	0.066234015759868
5.3650000000000	0.0048032112995687	0.066267752460049
5.3700000000000	0.0052028443746046	0.066299115307887
5.3750000000000	0.0056030166857516	0.066328011984209
5.3800000000000	0.0060037893241408	0.066354557848562
5.3850000000000	0.0064050060959087	0.066378623765919
5.3900000000000	0.0068067331027836	0.066400348300896
5.3950000000000	0.0072089682548742	0.066419557171685
5.4000000000000	0.0076116747458018	0.066436331008211
5.4050000000000	0.0080148415408743	0.066450693363402
5.4100000000000	0.0084184421606033	0.066462569955920
5.4150000000000	0.0088225357860965	0.066471992149300
5.4200000000000	0.0092269864169840	0.066479027697401
5.4250000000000	0.0096318847923347	0.066483509730503
5.4300000000000	0.010037072501456	0.066485571740483
5.4350000000000	0.010442724424884	0.066485154791003
5.4400000000000	0.010848692251435	0.066482247697729
5.4450000000000	0.011255021215524	0.066476812622695
5.4500000000000	0.011661652166767	0.066468984970348
5.4550000000000	0.012068643026631	0.066458598315993
5.4600000000000	0.012475905683252	0.066445791106089
5.4650000000000	0.012883425958342	0.066430394890134
5.4700000000000	0.013291181311850	0.066412555537680
5.4750000000000	0.013699254043439	0.066392228659842
5.4800000000000	0.014107536081271	0.066369308666764
5.4850000000000	0.014516044003574	0.066343936550198
5.4900000000000	0.014924708389612	0.066316013410031
5.4950000000000	0.015333627687111	0.066285591537884
5.5000000000000	0.015742682973141	0.066252659626557
5.5050000000000	0.016151921501832	0.066217197052888
5.5100000000000	0.016561266372936	0.066179217481816
5.5150000000000	0.016970724567110	0.066138685139433
5.5200000000000	0.017380345321067	0.066095585892505
5.5250000000000	0.017790028274709	0.066049977596050
5.5300000000000	0.018199834942015	0.066001880090432
5.5350000000000	0.018609593750202	0.065951123252637
5.5400000000000	0.019019514381726	0.065897877940030
5.5450000000000	0.019429409529139	0.065842140773419
5.5500000000000	0.019839372555620	0.065783821594018
5.5550000000000	0.020249253671565	0.065722927984789
5.5600000000000	0.020659139805491	0.065659459869716
5.5650000000000	0.021069037987644	0.065593482410960
5.5700000000000	0.021478855342024	0.065524966039708
5.5750000000000	0.021888605634799	0.065453802760475
5.5800000000000	0.022298266830009	0.065380165883235
5.5850000000000	0.022707883435838	0.065303928986424
5.5900000000000	0.023117369978853	0.065225095950595
5.5950000000000	0.023526668541131	0.065143738345888
5.6000000000000	0.023935865111379	0.065059757212067
5.6050000000000	0.024344926358374	0.064973288174615
5.6100000000000	0.024753763208806	0.064884233103451
5.6150000000000	0.025162417840150	0.064792554217719
5.6200000000000	0.025570865544852	0.064698328805513
5.6250000000000	0.025979126529159	0.064601550049084
5.6300000000000	0.026387138470140	0.064502190561124
5.6350000000000	0.026794870693919	0.064400221751687
5.6400000000000	0.027202310101698	0.064295727718634
5.6450000000000	0.027609480382236	0.064188641648335
5.6500000000000	0.028016330921830	0.064078962045002
5.6550000000000	0.028422906468108	0.063966741246400
5.6600000000000	0.028829054019893	0.063851846873480
5.6650000000000	0.029234921794746	0.063734551254271
5.6700000000000	0.029640392338529	0.063614557439710
5.6750000000000	0.030045488186821	0.063492031417741
5.6800000000000	0.030450144088480	0.063366943757309
5.6850000000000	0.030854422283297	0.063239149912050
5.6900000000000	0.031258253314388	0.063108930880806
5.6950000000000	0.031661661057736	0.062976054731792
5.7000000000000	0.032064511930459	0.062840670663417
5.7050000000000	0.032466944205313	0.062702707252769
5.7100000000000	0.032868870780045	0.062562113494036
5.7150000000000	0.033270255824268	0.062418983583390
5.7200000000000	0.033671120757790	0.062273325533402
5.7250000000000	0.034071437097095	0.062125043941813
5.7300000000000	0.034471192905344	0.061974222274497
5.7350000000000	0.034870384542041	0.061820812766748
5.7400000000000	0.035268884539414	0.061664899985922
5.7450000000000	0.035666827482825	0.061506402525438
5.7500000000000	0.036064155766162	0.061345318087625
5.7550000000000	0.036460840701867	0.061181700663406
5.7600000000000	0.036856838685237	0.061015503047772
5.7650000000000	0.037252139296625	0.060846738856712
5.7700000000000	0.037646732723854	0.060675485700865
5.7750000000000	0.038040651938860	0.060501631248312
5.7800000000000	0.038433836166162	0.060325231213323
5.7850000000000	0.038826241477199	0.060146314217079
5.7900000000000	0.039217876487080	0.059964795033115
5.7950000000000	0.039608789861751	0.059780837441445
5.8000000000000	0.039998858182372	0.059594282042921
5.8050000000000	0.040388116576686	0.059405206265011
5.8100000000000	0.040776519573610	0.059213577988832
5.8150000000000	0.041164100285770	0.059019407071720
5.8200000000000	0.041550891147870	0.058822818031651
5.8250000000000	0.041936715696620	0.058623604123326
5.8300000000000	0.042321659587122	0.058421898895500
5.8350000000000	0.042705689605434	0.058217691101175
5.8400000000000	0.043088791621278	0.058010978689771
5.8450000000000	0.043470958894550	0.057801786016918
5.8500000000000	0.043852159101607	0.057590034000177
5.8550000000000	0.044232438193735	0.057375865045988
5.8600000000000	0.044611679799784	0.057159095465682
5.8650000000000	0.044989848984460	0.056939885720722
5.8700000000000	0.045367129336055	0.056718251305902
5.8750000000000	0.045743268412403	0.056494077915782
5.8800000000000	0.046118374486289	0.056267358017936
5.8850000000000	0.046492409787688	0.056038291917158
5.8900000000000	0.046865339268932	0.055806694738219
5.8950000000000	0.047237202941999	0.055572635323212
5.9000000000000	0.047607921047348	0.055336152351211
5.9050000000000	0.047977507032841	0.055097187550971
5.9100000000000	0.048345838266351	0.054855773475915
5.9150000000000	0.048713125007401	0.054611960159925
5.9200000000000	0.049079223669746	0.054365666663575
5.9250000000000	0.049444101088368	0.054116982422067
5.9300000000000	0.049807728177602	0.053865846643703
5.9350000000000	0.050170111820291	0.053612240572309
5.9400000000000	0.050531259418441	0.053356244267540
5.9450000000000	0.050891166770993	0.053097875522251
5.9500000000000	0.051249771723021	0.052837144523162
5.9550000000000	0.051607114392786	0.052573960803088
5.9600000000000	0.051963120351128	0.052308417955157
5.9650000000000	0.052317738117154	0.052040397310881
5.9700000000000	0.052671063430994	0.051770111194707
5.9750000000000	0.053023011422774	0.051497399464766
5.9800000000000	0.053373620140025	0.051222363409294
5.9850000000000	0.053722832493375	0.050944926050207
5.9900000000000	0.054070537330983	0.050665156640234
5.9950000000000	0.054416909714001	0.050383039075489
6.0000000000000	0.054761830233182	0.050098576233602
6.0050000000000	0.055105301315860	0.049811802719813
6.0100000000000	0.055447274729701	0.049522693361720
6.0150000000000	0.055787812336934	0.049231316985604
6.0200000000000	0.056126814802499	0.048937614902204
6.0250000000000	0.056464303829521	0.048641572913342
6.0300000000000	0.056800223514911	0.048343267367241
6.0350000000000	0.057134636613640	0.048042671104369
6.0400000000000	0.057467472399924	0.047739751181632
6.0450000000000	0.057798685615910	0.047434621200549
6.0500000000000	0.058128380741160	0.047127210147012
6.0550000000000	0.058456357519051	0.046817566701751
6.0600000000000	0.058782782074334	0.046505645591130
6.0650000000000	0.059107626674724	0.046191495141174
6.0700000000000	0.059430772564425	0.045875143067122
6.0750000000000	0.059752210356232	0.045556590399309
6.0800000000000	0.060071983855391	0.045235806853318
6.0850000000000	0.060390087044582	0.044912803212222
6.0900000000000	0.060706467325876	0.044587616056799
6.0950000000000	0.061021025095485	0.044260225652037
6.1000000000000	0.061333968733832	0.043930668700000
6.1050000000000	0.061645132211458	0.043598986074571
6.1100000000000	0.061954433554441	0.043265092708003
6.1150000000000	0.062261972050988	0.042929079027916
6.1200000000000	0.062567811979641	0.042590918893510
6.1250000000000	0.062871747788079	0.042250620815126
6.1300000000000	0.063173846527628	0.041908212096827
6.1350000000000	0.063474115123935	0.041563712482260
6.1400000000000	0.063772533766948	0.041217171101610
6.1450000000000	0.064069043589892	0.040868399357888
6.1500000000000	0.064363699606808	0.040517657225306
6.1550000000000	0.064656423230319	0.040164800769676
6.1600000000000	0.064947185938483	0.039809869098652
6.1650000000000	0.065236120007030	0.039452956175071
6.1700000000000	0.065523079030192	0.039093948679487
6.1750000000000	0.065808028419036	0.038732940158526
6.1800000000000	0.066091032148900	0.038369898528799
6.1850000000000	0.066372000072300	0.038004868787235
6.1900000000000	0.066651078698377	0.037637835423707
6.1950000000000	0.066928061663288	0.037268779840029
6.2000000000000	0.067202970523258	0.036897814933206
6.2050000000000	0.067475910815074	0.036524857669533
6.2100000000000	0.067746806446596	0.036149955614927
6.2150000000000	0.068015596616207	0.035773111248993
6.2200000000000	0.068282221116646	0.035394338853349
6.2250000000000	0.068546877158436	0.035013686893877
6.2300000000000	0.068809335766247	0.034631047938985
6.2350000000000	0.069069678864700	0.034246526381462
6.2400000000000	0.069327860762054	0.033860168174519
6.2450000000000	0.069583962417327	0.033471932933077
6.2500000000000	0.069837883454108	0.033081838877231
6.2550000000000	0.070089670506629	0.032689889721751
6.2600000000000	0.070339223991536	0.032296130360030
6.2650000000000	0.070586507478097	0.031900524787946
6.2700000000000	0.070831639268164	0.031503104929631
6.2750000000000	0.071074480347723	0.031103912834282
6.2800000000000	0.071315199912769	0.030702909241919
6.2850000000000	0.071553548677643	0.030300140609541
6.2900000000000	0.071789695296047	0.029895638716696
6.2950000000000	0.072023461233598	0.029489315848050
6.3000000000000	0.072255086301999	0.029081327545923
6.3050000000000	0.072484283313778	0.028671617489804
6.3100000000000	0.072711242933131	0.028260155208681
6.3150000000000	0.072935829684543	0.027847027746599
6.3200000000000	0.073158090828763	0.027432233176561
6.3250000000000	0.073377952211352	0.027015754541467
6.3300000000000	0.073595490981138	0.026597566735744
6.3350000000000	0.073810620443487	0.026177813354089
6.3400000000000	0.074023415099024	0.025756378973782
6.3450000000000	0.074233781920854	0.025333404872683
6.3500000000000	0.074441728918989	0.024908750151173
6.3550000000000	0.074647254705421	0.024482520907946
6.3600000000000	0.074850343726059	0.024054726533820
6.3650000000000	0.075050919938673	0.023625431613706
6.3700000000000	0.075249070943603	0.023194496043746
6.3750000000000	0.075444819229710	0.022762093945914
6.3800000000000	0.075638075835506	0.022328131421798
6.3850000000000	0.075828793892722	0.021892669077320
6.3900000000000	0.076016957878374	0.021455781665586
6.3950000000000	0.076202670245283	0.021017331657824
6.4000000000000	0.076385826566989	0.020577414581110
6.4050000000000	0.076566510935538	0.020136118871408
6.4100000000000	0.076744624561167	0.019693389416023
6.4150000000000	0.076920136538003	0.019249245154611
6.4200000000000	0.077093079028128	0.018803659824359
6.4250000000000	0.077263493845031	0.018356706781857
6.4300000000000	0.077431250476011	0.017908414168746
6.4350000000000	0.077596409319550	0.017458659821957
6.4400000000000	0.077759034809804	0.017007658103339
6.4450000000000	0.077918989854053	0.016555249032174
6.4500000000000	0.078076356693199	0.016101698895200
6.4550000000000	0.078230992741551	0.015646693395412
6.4600000000000	0.078382980631043	0.015190407922323
6.4650000000000	0.078532411332454	0.014732921949851
6.4700000000000	0.078679091622100	0.014274217222401
6.4750000000000	0.078823127118793	0.013814173024928
6.4800000000000	0.078964415728628	0.013352949853843
6.4850000000000	0.079103016267830	0.012890529214622
6.4900000000000	0.079239009637828	0.012427024029681
6.4950000000000	0.079372123234510	0.011962212133400
6.5000000000000	0.079502595788658	0.011496265850578
6.5050000000000	0.079630386548134	0.011029192648780
6.5100000000000	0.079755353450119	0.010560955122401
6.5150000000000	0.079877558087798	0.010091725601018
6.5200000000000	0.079997088347662	0.0096213110449216
6.5250000000000	0.080113801232327	0.0091498634823941
6.5300000000000	0.080227624822488	0.0086773143090531
6.5350000000000	0.080338710788310	0.0082037775631208
6.5400000000000	0.080447049094527	0.0077291780091718
6.5450000000000	0.080552624887653	0.0072535462957170
6.5500000000000	0.080655294911941	0.0067769627748552
6.5550000000000	0.080755233006909	0.0062994095722324
6.5600000000000	0.080852197133071	0.0058209024361212
6.5650000000000	0.080946513031972	0.0053414253044673
6.5700000000000	0.081037925996283	0.0048609929242784
6.5750000000000	0.081126425732923	0.0043797268790140
6.5800000000000	0.081211969978203	0.0038975419757368
6.5850000000000	0.081294776834001	0.0034144469861859
6.5900000000000	0.081374694638419	0.0029305475113373
6.5950000000000	0.081451716908744	0.0024457703730014
6.6000000000000	0.081525833187039	0.0019602143704122
6.6050000000000	0.081597085746591	0.0014737873874128
6.6100000000000	0.081665415253156	0.00098661159333875
6.6150000000000	0.081730820643664	0.00049871281068425
6.6200000000000	0.081793378835034	9.9512303882971e-06
6.6250000000000	0.081852901520522	-0.00047950295214498
6.6300000000000	0.081909565370743	-0.00096967182400763
6.6350000000000	0.081963172910581	-0.0014605293151631
6.6400000000000	0.082013954395052	-0.0019520284853749
6.6450000000000	0.082061759264186	-0.0024442582877423
6.6500000000000	0.082106584374167	-0.0029371414307647
6.6550000000000	0.082148508519154	-0.0034306799413586
6.6600000000000	0.082187394756480	-0.0039247037055054
6.6650000000000	0.082223361821300	-0.0044194423148301
6.6700000000000	0.082256322712719	-0.0049147057870063
6.6750000000000	0.082286169160192	-0.0054105527588076
6.6800000000000	0.082313227441722	-0.0059069077569992
6.6850000000000	0.082337162109640	-0.0064038156280627
6.6900000000000	0.082358148576876	-0.0069012205201642
6.6950000000000	0.082376086626562	-0.0073991405793627
6.7000000000000	0.082391080289771	-0.0078974481889790
6.7050000000000	0.082403008443465	-0.0083962724071332
6.7100000000000	0.082411870940352	-0.0088954855027735
6.7150000000000	0.082417809821137	-0.0093951504723264
6.7200000000000	0.082420629168285	-0.0098951507130775
6.7250000000000	0.082420358635024	-0.010395640146989
6.7300000000000	0.082417197021355	-0.010896416395782
6.7350000000000	0.082410895381069	-0.011397510616407
6.7400000000000	0.082401495521549	-0.011898957700557
6.7450000000000	0.082389137781555	-0.012400709250022
6.7500000000000	0.082373715934499	-0.012902702477114
6.7550000000000	0.082355179053990	-0.013405019254807
6.7600000000000	0.082333612591317	-0.013907631329170
6.7650000000000	0.082308994862884	-0.014410335217519
6.7700000000000	0.082281190514786	-0.014913268318475
6.7750000000000	0.082250432589127	-0.015416483502116
6.7800000000000	0.082216502823214	-0.015919810089862
6.7850000000000	0.082179581249788	-0.016423259228125
6.7900000000000	0.082139542850347	-0.016926903139453
6.7950000000000	0.082096370622934	-0.017430611803018
6.8000000000000	0.082050127423438	-0.017934497988086
6.8050000000000	0.082000790813746	-0.018438365992945
6.8100000000000	0.081948416949861	-0.018942385181036
6.8150000000000	0.081892843896066	-0.019446362219360
6.8200000000000	0.081834239656804	-0.019950417694517
6.8250000000000	0.081772515584538	-0.020454421060899
6.8300000000000	0.081707664506061	-0.020958435598852
6.8350000000000	0.081639635638163	-0.021462384166701
6.8400000000000	0.081568619410799	-0.021966305108100
6.8450000000000	0.081494511755833	-0.022470147069827
6.8500000000000	0.081417169458285	-0.022973892981985
6.8550000000000	0.081336786367231	-0.023477497724396
6.8600000000000	0.081253250709317	-0.023980992849449
6.8650000000000	0.081166537598225	-0.024484263091250
6.8700000000000	0.081076859788635	-0.024987449336283
6.8750000000000	0.080983864194859	-0.025490462817039
6.8800000000000	0.080887929423650	-0.025993225004590
