#
#"Frequency / GHz"	"S1,2 [Real/Imaginary Part] [Re]"	"S1,2 [Real/Imaginary Part] [Im]"
#-------------------------------------------------------------------------------------
5.0000000000000	-0.038911842645006	0.10856982347836
5.0050000000000	-0.038300519684180	0.10890729145942
5.0100000000000	-0.037686542893132	0.10924132415209
5.0150000000000	-0.037069931516605	0.10957190182972
5.0200000000000	-0.036450704940497	0.10989900487314
5.0250000000000	-0.035828882691253	0.11022261377166
5.0300000000000	-0.035204484435269	0.11054270912406
5.0350000000000	-0.034577529978279	0.11085927163953
5.0400000000000	-0.033948039264736	0.11117228213867
5.0450000000000	-0.033316032377193	0.11148172155442
5.0500000000000	-0.032681529535666	0.11178757093305
5.0550000000000	-0.032044551097005	0.11208981143510
5.0600000000000	-0.031405117554247	0.11238842433636
5.0650000000000	-0.030763249535967	0.11268339102876
5.0700000000000	-0.030118967805624	0.11297469302141
5.0750000000000	-0.029472293260897	0.11326231194144
5.0800000000000	-0.028823246933017	0.11354622953502
5.0850000000000	-0.028171849986093	0.11382642766826
5.0900000000000	-0.027518123716433	0.11410288832815
5.0950000000000	-0.026862089551849	0.11437559362349
5.1000000000000	-0.026203769050973	0.11464452578579
5.1050000000000	-0.025543183902549	0.11490966717024
5.1100000000000	-0.024880355924731	0.11517100025658
5.1150000000000	-0.024215307064372	0.11542850765005
5.1200000000000	-0.023548059396298	0.11568217208226
5.1250000000000	-0.022878635122593	0.11593197641212
5.1300000000000	-0.022207056571858	0.11617790362677
5.1350000000000	-0.021533346198482	0.11641993684239
5.1400000000000	-0.020857526581893	0.11665805930519
5.1450000000000	-0.020179620425811	0.11689225439222
5.1500000000000	-0.019499650557493	0.11712250561233
5.1550000000000	-0.018817639926969	0.11734879660697
5.1600000000000	-0.018133611606275	0.11757111115113
5.1650000000000	-0.017447588788681	0.11778943315417
5.1700000000000	-0.016759594787909	0.11800374666071
5.1750000000000	-0.016069653037348	0.11821403585149
5.1800000000000	-0.015377787089264	0.11842028504422
5.1850000000000	-0.014684020613998	0.11862247869444
5.1900000000000	-0.013988377399167	0.11882060139636
5.1950000000000	-0.013290881348852	0.11901463788370
5.2000000000000	-0.012591556482783	0.11920457303058
5.2050000000000	-0.011890426935518	0.11939039185227
5.2100000000000	-0.011187516955615	0.11957207950609
5.2150000000000	-0.010482850904804	0.11974962129222
5.2200000000000	-0.0097764532571395	0.11992300265448
5.2250000000000	-0.0090683485981645	0.12009220918122
5.2300000000000	-0.0083585616240559	0.12025722660606
5.2350000000000	-0.0076471171407705	0.12041804080874
5.2400000000000	-0.0069340400631827	0.12057463781590
5.2450000000000	-0.0062193554142182	0.12072700380188
5.2500000000000	-0.0055030883239809	0.12087512508954
5.2550000000000	-0.0047852640288746	0.12101898815099
5.2600000000000	-0.0040659078707195	0.12115857960842
5.2650000000000	-0.0033450452958627	0.12129388623486
5.2700000000000	-0.0026227018542831	0.12142489495494
5.2750000000000	-0.0018989031986916	0.12155159284569
5.2800000000000	-0.0011736750836251	0.12167396713723
5.2850000000000	-0.00044704336453519	0.12179200521362
5.2900000000000	0.00028096600312832	0.12190569461352
5.2950000000000	0.0010103269648392	0.12201502303101
5.3000000000000	0.0017410133679221	0.12211997831627
5.3050000000000	0.0024729989624852	0.12222054847635
5.3100000000000	0.0032062574023578	0.12231672167587
5.3150000000000	0.0039407622460338	0.12240848623778
5.3200000000000	0.0046764869576193	0.12249583064404
5.3250000000000	0.0054134049077866	0.12257874353636
5.3300000000000	0.0061514893747324	0.12265721371687
5.3350000000000	0.0068907135451417	0.12273123014886
5.3400000000000	0.0076310505151565	0.12280078195745
5.3450000000000	0.0083724732913495	0.12286585843029
5.3500000000000	0.0091149547917029	0.12292644901823
5.3550000000000	0.0098584678465925	0.12298254333603
5.3600000000000	0.010602985199776	0.12303413116296
5.3650000000000	0.011348479509387	0.12308120244356
5.3700000000000	0.012094923348933	0.12312374728821
5.3750000000000	0.012842289208300	0.12316175597386
5.3800000000000	0.013590549494760	0.12319521894463
5.3850000000000	0.014339676533982	0.12322412681244
5.3900000000000	0.015089642571053	0.12324847035770
5.3950000000000	0.015840419771500	0.12326824052989
5.4000000000000	0.016591980222313	0.12328342844821
5.4050000000000	0.017344295932983	0.12329402540219
5.4100000000000	0.018097338836534	0.12330002285228
5.4150000000000	0.018851080790563	0.12330141243048
5.4200000000000	0.019605493578291	0.12329818594096
5.4250000000000	0.020360548909607	0.12329033536058
5.4300000000000	0.021116218422124	0.12327785283954
5.4350000000000	0.021872473682241	0.12326073070193
5.4400000000000	0.022629286186201	0.12323896144634
5.4450000000000	0.023386627361164	0.12321253774634
5.4500000000000	0.024144468566272	0.12318145245116
5.4550000000000	0.024902781093732	0.12314569858612
5.4600000000000	0.025661536169893	0.12310526935329
5.4650000000000	0.026420704956328	0.12306015813195
5.4700000000000	0.027180258550930	0.12301035847914
5.4750000000000	0.027940167988994	0.12295586413022
5.4800000000000	0.028700404244326	0.12289666899937
5.4850000000000	0.029460938230334	0.12283276718008
5.4900000000000	0.030221740801135	0.12276415294570
5.4950000000000	0.030982782752670	0.12269082074990
5.5000000000000	0.031744034823808	0.12261276522721
5.5050000000000	0.032505467697468	0.12252998119345
5.5100000000000	0.033267052001736	0.12244246364625
5.5150000000000	0.034028758310994	0.12235020776553
5.5200000000000	0.034790557147041	0.12225320891391
5.5250000000000	0.035552418980231	0.12215146263725
5.5300000000000	0.036314314230605	0.12204496466503
5.5350000000000	0.037076213269029	0.12193371091082
5.5400000000000	0.037838086418339	0.12181769747275
5.5450000000000	0.038599903954487	0.12169692063390
5.5500000000000	0.039361636107686	0.12157137686273
5.5550000000000	0.040123253063568	0.12144106281351
5.5600000000000	0.040884724964339	0.12130597532672
5.5650000000000	0.041646021909937	0.12116611142947
5.5700000000000	0.042407113959195	0.12102146833588
5.5750000000000	0.043167971131010	0.12087204344744
5.5800000000000	0.043928563405510	0.12071783435348
5.5850000000000	0.044688860725226	0.12055883883142
5.5900000000000	0.045448832996270	0.12039505484725
5.5950000000000	0.046208450089513	0.12022648055583
5.6000000000000	0.046967681841766	0.12005311430123
5.6050000000000	0.047726498056966	0.11987495461712
5.6100000000000	0.048484868507363	0.11969200022709
5.6150000000000	0.049242762934711	0.11950425004495
5.6200000000000	0.050000151051463	0.11931170317509
5.6250000000000	0.050757002541964	0.11911435891279
5.6300000000000	0.051513287063654	0.11891221674451
5.6350000000000	0.052268974248267	0.11870527634818
5.6400000000000	0.053024033703038	0.11849353759354
5.6450000000000	0.053778435011909	0.11827700054239
5.6500000000000	0.054532147736738	0.11805566544885
5.6550000000000	0.055285141418511	0.11782953275968
5.6600000000000	0.056037385578560	0.11759860311449
5.6650000000000	0.056788849719778	0.11736287734605
5.6700000000000	0.057539503327838	0.11712235648046
5.6750000000000	0.058289315872416	0.11687704173749
5.6800000000000	0.059038256808414	0.11662693453070
5.6850000000000	0.059786295577189	0.11637203646776
5.6900000000000	0.060533401607779	0.11611234935061
5.6950000000000	0.061279544318137	0.11584787517568
5.7000000000000	0.062024693116359	0.11557861613410
5.7050000000000	0.062768817401926	0.11530457461188
5.7100000000000	0.063511886566933	0.11502575319011
5.7150000000000	0.064253869997333	0.11474215464512
5.7200000000000	0.064994737074179	0.11445378194866
5.7250000000000	0.065734457174862	0.11416063826806
5.7300000000000	0.066472999674359	0.11386272696639
5.7350000000000	0.067210333946478	0.11356005160259
5.7400000000000	0.067946429365106	0.11325261593160
5.7450000000000	0.068681255305459	0.11294042390452
5.7500000000000	0.069414781145332	0.11262347966873
5.7550000000000	0.070146976266354	0.11230178756796
5.7600000000000	0.070877810055241	0.11197535214246
5.7650000000000	0.071607251905050	0.11164417812902
5.7700000000000	0.072335271216438	0.11130827046116
5.7750000000000	0.073061837398922	0.11096763426910
5.7800000000000	0.073786919872134	0.11062227487993
5.7850000000000	0.074510488067086	0.11027219781762
5.7900000000000	0.075232511427432	0.10991740880309
5.7950000000000	0.075952959410728	0.10955791375426
5.8000000000000	0.076671801489700	0.10919371878610
5.8050000000000	0.077389007153507	0.10882483021067
5.8100000000000	0.078104545909009	0.10845125453711
5.8150000000000	0.078818387282032	0.10807299847169
5.8200000000000	0.079530500818642	0.10769006891782
5.8250000000000	0.080240856086404	0.10730247297602
5.8300000000000	0.080949422675663	0.10691021794395
5.8350000000000	0.081656170200804	0.10651331131637
5.8400000000000	0.082361068301533	0.10611176078512
5.8450000000000	0.083064086644140	0.10570557423912
5.8500000000000	0.083765194922780	0.10529475976426
5.8550000000000	0.084464362860736	0.10487932564343
5.8600000000000	0.085161560211702	0.10445928035642
5.8650000000000	0.085856756761049	0.10403463257986
5.8700000000000	0.086549922327106	0.10360539118715
5.8750000000000	0.087241026762429	0.10317156524839
5.8800000000000	0.087930039955075	0.10273316403027
5.8850000000000	0.088616931829883	0.10229019699601
5.8900000000000	0.089301672349743	0.10184267380519
5.8950000000000	0.089984231516875	0.10139060431373
5.9000000000000	0.090664579374100	0.10093399857365
5.9050000000000	0.091342686006119	0.10047286683306
5.9100000000000	0.092018521540785	0.10000721953594
5.9150000000000	0.092692056150381	0.099537067322010
5.9200000000000	0.093363260052890	0.099062421026604
5.9250000000000	0.094032103513274	0.098583291680473
5.9300000000000	0.094698556844746	0.098099690509633
5.9350000000000	0.095362590410045	0.097611628935177
5.9400000000000	0.096024174622705	0.097119118573088
5.9450000000000	0.096683279948335	0.096622171234047
5.9500000000000	0.097339876905886	0.096120798923221
5.9550000000000	0.097993936068926	0.095615013840058
5.9600000000000	0.098645428066906	0.095104828378061
5.9650000000000	0.099294323586440	0.094590255124558
5.9700000000000	0.099940593372564	0.094071306860467
5.9750000000000	0.10058420823001	0.093547996560050
5.9800000000000	0.10122513902449	0.093020337390658
5.9850000000000	0.10186335668392	0.092488342712465
5.9900000000000	0.10249883219973	0.091952026078203
5.9950000000000	0.10313153662813	0.091411401232880
6.0000000000000	0.10376144109132	0.090866482113494
6.0050000000000	0.10438851677882	0.090317282848732
6.0100000000000	0.10501273494869	0.089763817758676
6.0150000000000	0.10563406692883	0.089206101354481
6.0200000000000	0.10625248411817	0.088644148338060
6.0250000000000	0.10686795798801	0.088077973601756
6.0300000000000	0.10748046008322	0.087507592228001
6.0350000000000	0.10808996202352	0.086933019488974
6.0400000000000	0.10869643550472	0.086354270846247
6.0450000000000	0.10929985230001	0.085771361950421
6.0500000000000	0.10990018426115	0.085184308640762
6.0550000000000	0.11049740331977	0.084593126944816
6.0600000000000	0.11109148148858	0.083997833078027
6.0650000000000	0.11168239086265	0.083398443443342
6.0700000000000	0.11227010362064	0.082794974630805
6.0750000000000	0.11285459202604	0.082187443417152
6.0800000000000	0.11343582842841	0.081575866765387
6.0850000000000	0.11401378526460	0.080960261824356
6.0900000000000	0.11458843506004	0.080340645928313
6.0950000000000	0.11515975042991	0.079717036596475
6.1000000000000	0.11572770408043	0.079089451532570
6.1050000000000	0.11629226881003	0.078457908624380
6.1100000000000	0.11685341751063	0.077822425943267
6.1150000000000	0.11741112316885	0.077183021743703
6.1200000000000	0.11796535886721	0.076539714462784
6.1250000000000	0.11851609778538	0.075892522719735
6.1300000000000	0.11906331320138	0.075241465315413
6.1350000000000	0.11960697849280	0.074586561231796
6.1400000000000	0.12014706713802	0.073927829631469
6.1450000000000	0.12068355271743	0.073265289857097
6.1500000000000	0.12121640891460	0.072598961430893
6.1550000000000	0.12174560951751	0.071928864054078
6.1600000000000	0.12227112841977	0.071255017606333
6.1650000000000	0.12279293962179	0.070577442145238
6.1700000000000	0.12331101723198	0.069896157905715
6.1750000000000	0.12382533546795	0.069211185299446
6.1800000000000	0.12433586865772	0.068522544914303
6.1850000000000	0.12484259124087	0.067830257513749
6.1900000000000	0.12534547776976	0.067134344036249
6.1950000000000	0.12584450291068	0.066434825594663
6.2000000000000	0.12633964144504	0.065731723475632
6.2050000000000	0.12683086827058	0.065025059138962
6.2100000000000	0.12731815840248	0.064314854216992
6.2150000000000	0.12780148697456	0.063601130513963
6.2200000000000	0.12828082924046	0.062883910005367
6.2250000000000	0.12875616057477	0.062163214837304
6.2300000000000	0.12922745647421	0.061439067325818
6.2350000000000	0.12969469255879	0.060711489956228
6.2400000000000	0.13015784457293	0.059980505382459
6.2450000000000	0.13061688838662	0.059246136426358
6.2500000000000	0.13107179999660	0.058508406076999
6.2550000000000	0.13152255552745	0.057767337489991
6.2600000000000	0.13196913123273	0.057022953986770
6.2650000000000	0.13241150349616	0.056275279053887
6.2700000000000	0.13284964883269	0.055524336342286
6.2750000000000	0.13328354388967	0.054770149666575
6.2800000000000	0.13371316544793	0.054012743004293
6.2850000000000	0.13413849042293	0.053252140495164
6.2900000000000	0.13455949586585	0.052488366440346
6.2950000000000	0.13497615896471	0.051721445301676
6.3000000000000	0.13538845704547	0.050951401700899
6.3050000000000	0.13579636757312	0.050178260418897
6.3100000000000	0.13619986815281	0.049402046394907
6.3150000000000	0.13659893653089	0.048622784725737
6.3200000000000	0.13699355059603	0.047840500664963
6.3250000000000	0.13738368838028	0.047055219622133
6.3300000000000	0.13776932806018	0.046266967161950
6.3350000000000	0.13815044795781	0.045475769003460
6.3400000000000	0.13852702654185	0.044681651019224
6.3450000000000	0.13889904242867	0.043884639234487
6.3500000000000	0.13926647438335	0.043084759826336
6.3550000000000	0.13962930132079	0.042282039122857
6.3600000000000	0.13998750230670	0.041476503602277
6.3650000000000	0.14034105655868	0.040668179892106
6.3700000000000	0.14068994344725	0.039857094768268
6.3750000000000	0.14103414249690	0.039043275154225
6.3800000000000	0.14137363338708	0.038226748120096
6.3850000000000	0.14170839595326	0.037407540881765
6.3900000000000	0.14203841018796	0.036585680799988
6.3950000000000	0.14236365624170	0.035761195379485
6.4000000000000	0.14268411442409	0.034934112268035
6.4050000000000	0.14299976520478	0.034104459255555
6.4100000000000	0.14331058921447	0.033272264273177
6.4150000000000	0.14361656724593	0.032437555392315
6.4200000000000	0.14391768025494	0.031600360823731
6.4250000000000	0.14421390936131	0.030760708916587
6.4300000000000	0.14450523584985	0.029918628157494
6.4350000000000	0.14479164117132	0.029074147169556
6.4400000000000	0.14507310694344	0.028227294711401
6.4450000000000	0.14534961495181	0.027378099676213
6.4500000000000	0.14562114715086	0.026526591090752
6.4550000000000	0.14588768566485	0.025672798114370
6.4600000000000	0.14614921278875	0.024816750038019
6.4650000000000	0.14640571098924	0.023958476283251
6.4700000000000	0.14665716290558	0.023098006401218
6.4750000000000	0.14690355135057	0.022235370071656
6.4800000000000	0.14714485931149	0.021370597101873
6.4850000000000	0.14738106995097	0.020503717425720
6.4900000000000	0.14761216660791	0.019634761102563
6.4950000000000	0.14783813279841	0.018763758316246
6.5000000000000	0.14805895221662	0.017890739374049
6.5050000000000	0.14827460873569	0.017015734705639
6.5100000000000	0.14848508640859	0.016138774862011
6.5150000000000	0.14869036946903	0.015259890514433
6.5200000000000	0.14889044233230	0.014379112453371
6.5250000000000	0.14908528959618	0.013496471587420
6.5300000000000	0.14927489604174	0.012611998942224
6.5350000000000	0.14945924663425	0.011725725659387
6.5400000000000	0.14963832652398	0.010837682995382
6.5450000000000	0.14981212104706	0.0099479023204542
6.5500000000000	0.14998061572632	0.0090564151175177
6.5550000000000	0.15014379627209	0.0081632529810429
6.5600000000000	0.15030164858306	0.0072684476159428
6.5650000000000	0.15045415874705	0.0063720308364514
6.5700000000000	0.15060131304183	0.0054740345649947
6.5750000000000	0.15074309793595	0.0045744908310605
6.5800000000000	0.15087950008949	0.0036734317700573
6.5850000000000	0.15101050635486	0.0027708896221708
6.5900000000000	0.15113610377760	0.0018668967312139
6.5950000000000	0.15125627959711	0.00096148554347097
6.6000000000000	0.15137102124747	5.4688606536715e-05
6.6050000000000	0.15148031635816	-0.00085346143185048
6.6100000000000	0.15158415275480	-0.0017629318249807
6.6150000000000	0.15168251845995	-0.0026736897283497
6.6200000000000	0.15177540169379	-0.0035857022008425
6.6250000000000	0.15186279087488	-0.0044989362059207
6.6300000000000	0.15194467462087	-0.0054133586128169
6.6350000000000	0.15202104174925	-0.0063289361977327
6.6400000000000	0.15209188127800	-0.0072456356450434
6.6450000000000	0.15215718242633	-0.0081634235485064
6.6500000000000	0.15221693461539	-0.0090822664124760
6.6550000000000	0.15227112746891	-0.010002130653123
6.6600000000000	0.15231975081392	-0.010922982599657
6.6650000000000	0.15236279468140	-0.011844788495560
6.6700000000000	0.15240024930696	-0.012767514499815
6.6750000000000	0.15243210513148	-0.013691126688152
6.6800000000000	0.15245835280178	-0.014615591054285
6.6850000000000	0.15247898317125	-0.015540873511167
6.6900000000000	0.15249398730048	-0.016466939892237
6.6950000000000	0.15250335645791	-0.017393755952686
6.7000000000000	0.15250708212041	-0.018321287370715
6.7050000000000	0.15250515597396	-0.019249499748803
6.7100000000000	0.15249756991416	-0.020178358614982
6.7150000000000	0.15248431604691	-0.021107829424111
6.7200000000000	0.15246538668897	-0.022037877559156
6.7250000000000	0.15244077436852	-0.022968468332482
6.7300000000000	0.15241047182576	-0.023899566987136
6.7350000000000	0.15237447201347	-0.024831138698146
6.7400000000000	0.15233276809756	-0.025763148573817
6.7450000000000	0.15228535345763	-0.026695561657036
6.7500000000000	0.15223222168749	-0.027628342926579
6.7550000000000	0.15217336659575	-0.028561457298421
6.7600000000000	0.15210878220625	-0.029494869627052
6.7650000000000	0.15203846275868	-0.030428544706798
6.7700000000000	0.15196240270902	-0.031362447273143
6.7750000000000	0.15188059673008	-0.032296542004056
6.7800000000000	0.15179303971196	-0.033230793521326
6.7850000000000	0.15169972676257	-0.034165166391893
6.7900000000000	0.15160065320808	-0.035099625129188
6.7950000000000	0.15149581459341	-0.036034134194480
6.8000000000000	0.15138520668267	-0.036968657998215
6.8050000000000	0.15126882545963	-0.037903160901374
6.8100000000000	0.15114666712817	-0.038837607216824
6.8150000000000	0.15101872811267	-0.039771961210672
6.8200000000000	0.15088500505851	-0.040706187103633
6.8250000000000	0.15074549483241	-0.041640249072387
6.8300000000000	0.15060019452292	-0.042574111250953
6.8350000000000	0.15044910144076	-0.043507737732056
6.8400000000000	0.15029221311923	-0.044441092568504
6.8450000000000	0.15012952731463	-0.045374139774565
6.8500000000000	0.14996104200659	-0.046306843327348
6.8550000000000	0.14978675539845	-0.047239167168188
6.8600000000000	0.14960666591764	-0.048171075204031
6.8650000000000	0.14942077221603	-0.049102531308826
6.8700000000000	0.14922907317024	-0.050033499324920
6.8750000000000	0.14903156788199	-0.050963943064450
6.8800000000000	0.14882825567847	-0.051893826310747
6.8850000000000	0.14861913611258	-0.052823112819733
6.8900000000000	0.14840420896328	-0.053751766321332
6.8950000000000	0.14818347423591	-0.054679750520871
6.9000000000000	0.14795693216242	-0.055607029100495
6.9050000000000	0.14772458320171	-0.056533565720576
6.9100000000000	0.14748642803989	-0.057459324021133
6.9150000000000	0.14724246759050	-0.058384267623246
6.9200000000000	0.14699270299484	-0.059308360130478
